time/s,cycle number,freq/Hz,Re(Z)/Ohm,-Im(Z)/Ohm,|Z|/Ohm,Phase(Z)/deg
15428.58025,1.0,20004.453,0.30841,-0.01514,0.30878,2.81055
15428.72325,1.0,15829.126,0.3157,0.00553,0.31575,-1.00415
15428.86525,1.0,12516.703,0.32282,0.02104,0.3235,-3.72878
15429.00725,1.0,9909.4424,0.33259,0.03547,0.33448,-6.0874
15429.17125,1.0,7835.48,0.34361,0.04944,0.34714,-8.18751
15429.37225,1.0,6217.2461,0.35527,0.06215,0.36067,-9.92282
15429.61025,1.0,4905.291,0.3671,0.07058,0.37382,-10.88341
15429.84825,1.0,3881.2737,0.38082,0.08153,0.38945,-12.08419
15430.08625,1.0,3070.9827,0.395,0.08995,0.40511,-12.82831
15430.32525,1.0,2430.7778,0.40915,0.09933,0.42103,-13.64621
15430.56325,1.0,1923.1537,0.42507,0.10941,0.43893,-14.43477
15430.80125,1.0,1522.4358,0.44116,0.11777,0.45661,-14.94697
15431.03925,1.0,1203.8446,0.45984,0.12622,0.47685,-15.34827
15431.27825,1.0,952.86591,0.47989,0.13511,0.49854,-15.72442
15431.51625,1.0,754.27557,0.50015,0.14279,0.52013,-15.93373
15431.75325,1.0,596.71857,0.52171,0.1523,0.54349,-16.27417
15431.99125,1.0,471.96338,0.54304,0.16249,0.56683,-16.65807
15432.23025,1.0,373.20856,0.56889,0.17289,0.59458,-16.90451
15432.46825,1.0,295.47278,0.59487,0.1828,0.62232,-17.08207
15432.70725,1.0,233.87738,0.62247,0.19363,0.65189,-17.27893
15432.94525,1.0,185.05922,0.65132,0.20409,0.68255,-17.39808
15433.18125,1.0,146.35823,0.68232,0.21565,0.71559,-17.5393
15433.41725,1.0,115.77804,0.71716,0.22859,0.75272,-17.67955
15433.65225,1.0,91.6721,0.7517,0.23855,0.78864,-17.60648
15433.89725,1.0,72.51701,0.78877,0.2483,0.82693,-17.47361
15434.12625,1.0,57.36816,0.82952,0.25673,0.86834,-17.19728
15434.36325,1.0,45.3629,0.86951,0.26623,0.90936,-17.02343
15434.59525,1.0,35.93134,0.90963,0.27157,0.9493,-16.62293
15434.84525,1.0,28.40909,0.94965,0.27725,0.9893,-16.27528
15435.06025,1.0,22.48202,0.99322,0.28682,1.0338,-16.10732
15435.32525,1.0,17.79613,1.03546,0.29454,1.07653,-15.87839
15435.57725,1.0,14.06813,1.08335,0.30458,1.12535,-15.70322
15435.79325,1.0,11.1448,1.136,0.31373,1.17853,-15.43877
15436.06025,1.0,8.81772,1.18865,0.31874,1.23064,-15.01075
15436.23925,1.0,6.97545,1.247,0.32581,1.28886,-14.64287
15436.45725,1.0,5.5173,1.3093,0.31194,1.34595,-13.40099
15436.72625,1.0,4.36941,1.36512,0.30891,1.39964,-12.7504
15437.06125,1.0,3.45686,1.41962,0.28456,1.44786,-11.33454
15437.48025,1.0,2.73547,1.47138,0.26247,1.49461,-10.11422
15438.00525,1.0,2.16054,1.50941,0.23642,1.52781,-8.90195
15438.66425,1.0,1.70952,1.54275,0.20597,1.55644,-7.60443
15439.49325,1.0,1.35352,1.56974,0.18033,1.58006,-6.55348
15440.53625,1.0,1.07079,1.58988,0.15834,1.59774,-5.68729
15441.84925,1.0,0.84734,1.60428,0.1392,1.61031,-4.95899
15443.50525,1.0,0.67072,1.61584,0.12445,1.62062,-4.40419
15445.59425,1.0,0.53067,1.62503,0.11233,1.62891,-3.95434
15448.23125,1.0,0.41976,1.63339,0.10374,1.63669,-3.63421
15451.56225,1.0,0.33183,1.64032,0.09969,1.64335,-3.47794
15455.76825,1.0,0.26261,1.64748,0.09817,1.6504,-3.41002
15461.07625,1.0,0.20791,1.65559,0.09972,1.65859,-3.44685
15467.78025,1.0,0.16452,1.66578,0.10563,1.66913,-3.62848
15476.25725,1.0,0.13007,1.67666,0.11742,1.68077,-4.00606
15486.94725,1.0,0.10309,1.68612,0.13562,1.69157,-4.59872
15500.46125,1.0,0.08153,1.69336,0.1565,1.70057,-5.28041
15517.55925,1.0,0.06443,1.70204,0.17907,1.71144,-6.00585
15539.14525,1.0,0.05102,1.71825,0.19937,1.72978,-6.61864
15566.38826,1.0,0.04042,1.74117,0.22852,1.7561,-7.47698
15600.88326,1.0,0.03192,1.76793,0.26499,1.78768,-8.52454
15644.43126,1.0,0.02528,1.80252,0.30185,1.82762,-9.50651
15699.49626,1.0,0.01999,1.85496,0.34337,1.88647,-10.48721
31125.25157,2.0,20004.453,0.30973,-0.01468,0.31008,2.71276
31125.39457,2.0,15829.126,0.31762,0.0044,0.31765,-0.79281
31125.53657,2.0,12516.703,0.32415,0.02316,0.32498,-4.08592
31125.67857,2.0,9909.4424,0.3339,0.03461,0.33569,-5.91831
31125.84257,2.0,7835.48,0.34478,0.04903,0.34824,-8.09293
31126.04357,2.0,6217.2461,0.3561,0.05992,0.36111,-9.55179
31126.28157,2.0,4905.291,0.36786,0.07248,0.37493,-11.14599
31126.51957,2.0,3881.2737,0.38314,0.08173,0.39176,-12.04176
31126.75757,2.0,3070.9827,0.39536,0.09183,0.40589,-13.07557
31126.99657,2.0,2430.7778,0.41143,0.09925,0.42323,-13.56194
31127.23457,2.0,1923.1537,0.42838,0.11035,0.44237,-14.44553
31127.47157,2.0,1522.4358,0.44528,0.11865,0.46082,-14.92077
31127.71057,2.0,1203.8446,0.46308,0.12628,0.47999,-15.25308
31127.94857,2.0,952.86591,0.48277,0.13647,0.50169,-15.7851
31128.18757,2.0,754.27557,0.50393,0.14576,0.52459,-16.13215
31128.42457,2.0,596.71857,0.52444,0.15424,0.54665,-16.3889
31128.66157,2.0,471.96338,0.54926,0.16338,0.57304,-16.56525
31128.90157,2.0,373.20856,0.57336,0.17241,0.59872,-16.73639
31129.13857,2.0,295.47278,0.59978,0.18393,0.62735,-17.04829
31129.37757,2.0,233.87738,0.6264,0.19578,0.65628,-17.35667
31129.61557,2.0,185.05922,0.65667,0.20591,0.6882,-17.40945
31129.85257,2.0,146.35823,0.68762,0.21614,0.72079,-17.44967
31130.08857,2.0,115.77804,0.72119,0.22787,0.75633,-17.53464
31130.32257,2.0,91.6721,0.75766,0.23897,0.79445,-17.50543
31130.56857,2.0,72.51701,0.79588,0.24885,0.83387,-17.3629
31130.79757,2.0,57.36816,0.83507,0.2562,0.87348,-17.05583
31131.03457,2.0,45.3629,0.87465,0.26414,0.91367,-16.80411
31131.26657,2.0,35.93134,0.91578,0.27105,0.95505,-16.48763
31131.51657,2.0,28.40909,0.95513,0.27732,0.99458,-16.19029
31131.73157,2.0,22.48202,0.99807,0.28727,1.03859,-16.05716
31131.99657,2.0,17.79613,1.04294,0.29543,1.08398,-15.81573
31132.24857,2.0,14.06813,1.08915,0.30393,1.13076,-15.59164
31132.46457,2.0,11.1448,1.13975,0.31139,1.18152,-15.28058
31132.73157,2.0,8.81772,1.1947,0.31805,1.23631,-14.90729
31132.90957,2.0,6.97545,1.25618,0.31298,1.29459,-13.99041
31133.12857,2.0,5.5173,1.30687,0.30834,1.34275,-13.27544
31133.39757,2.0,4.36941,1.37072,0.29182,1.40144,-12.01842
31133.73257,2.0,3.45686,1.42321,0.27587,1.4497,-10.96983
31134.15157,2.0,2.73547,1.46604,0.25001,1.4872,-9.67772
31134.67657,2.0,2.16054,1.50657,0.22206,1.52285,-8.38477
31135.33557,2.0,1.70952,1.5365,0.19662,1.54903,-7.2924
31136.16457,2.0,1.35352,1.55896,0.17056,1.56826,-6.24377
31137.20657,2.0,1.07079,1.57722,0.14782,1.58413,-5.35419
31138.52057,2.0,0.84734,1.5917,0.12959,1.59696,-4.65444
31140.17657,2.0,0.67072,1.60358,0.11614,1.60778,-4.14239
31142.26557,2.0,0.53067,1.6121,0.10746,1.61568,-3.8137
31144.90157,2.0,0.41976,1.61947,0.10116,1.62262,-3.57423
31148.23357,2.0,0.33183,1.62583,0.09642,1.62869,-3.39411
31152.43857,2.0,0.26261,1.63218,0.09545,1.63496,-3.34701
31157.74757,2.0,0.20791,1.63922,0.09831,1.64216,-3.43221
31164.45157,2.0,0.16452,1.64669,0.104,1.64998,-3.6139
31172.92857,2.0,0.13007,1.65507,0.11271,1.65891,-3.89595
31183.61857,2.0,0.10309,1.66735,0.12452,1.67199,-4.27089
31197.13257,2.0,0.08153,1.68309,0.14407,1.68925,-4.89238
31214.22957,2.0,0.06443,1.69988,0.17173,1.70853,-5.76857
31235.81657,2.0,0.05102,1.71234,0.20487,1.72455,-6.82275
31263.05957,2.0,0.04042,1.72632,0.23558,1.74232,-7.77083
31297.55457,2.0,0.03192,1.75053,0.26574,1.77059,-8.63192
31341.10258,2.0,0.02528,1.7866,0.30367,1.81222,-9.6464
31396.16758,2.0,0.01999,1.82878,0.34937,1.86185,-10.81551
46506.24942,3.0,20004.453,0.30975,-0.01353,0.31005,2.50074
46506.39242,3.0,15829.126,0.31801,0.0063,0.31807,-1.1358
46506.53442,3.0,12516.703,0.32619,0.02076,0.32685,-3.64178
46506.67642,3.0,9909.4424,0.33549,0.03646,0.33747,-6.2026
46506.84042,3.0,7835.48,0.3463,0.04966,0.34985,-8.16132
46507.04142,3.0,6217.2461,0.35777,0.06111,0.36295,-9.69324
46507.27942,3.0,4905.291,0.36967,0.07164,0.37655,-10.96771
46507.51842,3.0,3881.2737,0.38307,0.08409,0.39219,-12.38075
46507.75642,3.0,3070.9827,0.3972,0.09101,0.4075,-12.90493
46507.99442,3.0,2430.7778,0.41292,0.10151,0.42521,-13.81129
46508.23242,3.0,1923.1537,0.42882,0.11089,0.44293,-14.49877
46508.47042,3.0,1522.4358,0.44522,0.11946,0.46097,-15.01961
46508.70842,3.0,1203.8446,0.46345,0.12766,0.48071,-15.40074
46508.94742,3.0,952.86591,0.48359,0.13776,0.50283,-15.90117
46509.18542,3.0,754.27557,0.50394,0.14497,0.52438,-16.04868
46509.42242,3.0,596.71857,0.52699,0.15536,0.54941,-16.4258
46509.66042,3.0,471.96338,0.55114,0.16485,0.57526,-16.65276
46509.89942,3.0,373.20856,0.57377,0.17274,0.59921,-16.75509
46510.13742,3.0,295.47278,0.60037,0.18444,0.62806,-17.07779
46510.37642,3.0,233.87738,0.62777,0.1951,0.65738,-17.26454
46510.61442,3.0,185.05922,0.65724,0.20714,0.68911,-17.49347
46510.85042,3.0,146.35823,0.68966,0.2181,0.72333,-17.54944
46511.08642,3.0,115.77804,0.72242,0.2277,0.75745,-17.49407
46511.32142,3.0,91.6721,0.75678,0.23906,0.79364,-17.53042
46511.56642,3.0,72.51701,0.79685,0.24805,0.83456,-17.29113
46511.79542,3.0,57.36816,0.83716,0.25668,0.87562,-17.04594
46512.03242,3.0,45.3629,0.87666,0.26488,0.9158,-16.81189
46512.26442,3.0,35.93134,0.91713,0.27193,0.95659,-16.51544
46512.51442,3.0,28.40909,0.95794,0.27806,0.99748,-16.18636
46512.72942,3.0,22.48202,1.00223,0.28675,1.04244,-15.96625
46512.99442,3.0,17.79613,1.04464,0.29432,1.08531,-15.73465
46513.24642,3.0,14.06813,1.09372,0.30316,1.13496,-15.49225
46513.46242,3.0,11.1448,1.14534,0.30879,1.18624,-15.08832
46513.72942,3.0,8.81772,1.19967,0.31427,1.24015,-14.67953
46513.90742,3.0,6.97545,1.26051,0.31651,1.29964,-14.09519
46514.12642,3.0,5.5173,1.31559,0.30179,1.34976,-12.91983
46514.39542,3.0,4.36941,1.37109,0.29369,1.4022,-12.08999
46514.73042,3.0,3.45686,1.42113,0.26868,1.44631,-10.70611
46515.14942,3.0,2.73547,1.46819,0.24468,1.48844,-9.46173
46515.67442,3.0,2.16054,1.50469,0.21866,1.5205,-8.26826
46516.33342,3.0,1.70952,1.53294,0.19122,1.54482,-7.11024
46517.16142,3.0,1.35352,1.55591,0.16609,1.56475,-6.09325
46518.20442,3.0,1.07079,1.57326,0.14506,1.57993,-5.26791
46519.51842,3.0,0.84734,1.58624,0.12785,1.59139,-4.60799
46521.17442,3.0,0.67072,1.59712,0.11384,1.60117,-4.07712
46523.26342,3.0,0.53067,1.60591,0.10287,1.6092,-3.6653
46525.89942,3.0,0.41976,1.61449,0.09646,1.61737,-3.419
46529.23142,3.0,0.33183,1.62222,0.09426,1.62496,-3.32529
46533.43643,3.0,0.26261,1.62861,0.09604,1.63144,-3.37486
46538.74443,3.0,0.20791,1.6341,0.09943,1.63712,-3.48195
46545.44943,3.0,0.16452,1.64034,0.10425,1.64365,-3.63636
46553.92543,3.0,0.13007,1.64912,0.11265,1.65296,-3.90767
46564.61543,3.0,0.10309,1.65909,0.12571,1.66385,-4.33314
46578.12943,3.0,0.08153,1.67033,0.14351,1.67648,-4.9107
46595.22743,3.0,0.06443,1.68416,0.16504,1.69222,-5.59675
46616.81343,3.0,0.05102,1.70469,0.18625,1.71483,-6.23537
46644.05643,3.0,0.04042,1.7343,0.21999,1.7482,-7.22921
46678.55143,3.0,0.03192,1.76461,0.26663,1.78465,-8.5924
46722.09943,3.0,0.02528,1.79056,0.31643,1.8183,-10.02179
46777.16444,3.0,0.01999,1.8217,0.35915,1.85676,-11.15285
61700.2637,4.0,20004.453,0.31049,-0.01356,0.31079,2.50017
61700.4067,4.0,15829.126,0.31775,0.00696,0.31782,-1.25566
61700.5487,4.0,12516.703,0.32682,0.02193,0.32755,-3.83978
61700.6907,4.0,9909.4424,0.33608,0.03686,0.3381,-6.25867
61700.8547,4.0,7835.48,0.34715,0.04895,0.35058,-8.02663
61701.0557,4.0,6217.2461,0.35846,0.06178,0.36375,-9.77824
61701.2937,4.0,4905.291,0.36943,0.07177,0.37633,-10.99433
61701.5317,4.0,3881.2737,0.38196,0.08224,0.39071,-12.15031
61701.7697,4.0,3070.9827,0.39673,0.0926,0.40739,-13.13779
61702.0077,4.0,2430.7778,0.41164,0.1006,0.42375,-13.73373
61702.2467,4.0,1923.1537,0.42868,0.108,0.44207,-14.14002
61702.4847,4.0,1522.4358,0.44563,0.11925,0.46131,-14.98065
61702.7227,4.0,1203.8446,0.46412,0.12732,0.48127,-15.33996
61702.9607,4.0,952.86591,0.48433,0.13756,0.50348,-15.85561
61703.1997,4.0,754.27557,0.50642,0.1474,0.52744,-16.22822
61703.4367,4.0,596.71857,0.52795,0.15442,0.55007,-16.30341
61703.6747,4.0,471.96338,0.55022,0.16411,0.57417,-16.60805
61703.9137,4.0,373.20856,0.57536,0.17473,0.60131,-16.89259
61704.1507,4.0,295.47278,0.60212,0.18354,0.62947,-16.95247
61704.3907,4.0,233.87738,0.62861,0.19512,0.6582,-17.24431
61704.6287,4.0,185.05922,0.65864,0.20557,0.68998,-17.33343
61704.8647,4.0,146.35823,0.69024,0.21588,0.72321,-17.36737
61705.1007,4.0,115.77804,0.72485,0.22856,0.76003,-17.5014
61705.3357,4.0,91.6721,0.76013,0.23781,0.79646,-17.37263
61705.5807,4.0,72.51701,0.79699,0.24742,0.83451,-17.2465
61705.8097,4.0,57.36816,0.83697,0.25619,0.8753,-17.01908
61706.0467,4.0,45.3629,0.87692,0.26244,0.91535,-16.66083
61706.2787,4.0,35.93134,0.91757,0.27098,0.95675,-16.45297
61706.5287,4.0,28.40909,0.95899,0.2789,0.99873,-16.21565
61706.7437,4.0,22.48202,1.00137,0.28595,1.0414,-15.93694
61707.0087,4.0,17.79613,1.04568,0.295,1.08649,-15.75444
61707.2607,4.0,14.06813,1.09349,0.30349,1.13483,-15.51145
61707.4767,4.0,11.1448,1.14467,0.30928,1.18572,-15.11976
61707.7437,4.0,8.81772,1.20028,0.31562,1.24109,-14.73267
61707.9217,4.0,6.97545,1.26167,0.30929,1.29903,-13.77415
61708.1407,4.0,5.5173,1.31029,0.30123,1.34447,-12.94698
61708.4097,4.0,4.36941,1.37314,0.28648,1.4027,-11.78463
61708.7447,4.0,3.45686,1.42129,0.26936,1.44659,-10.73115
61709.1637,4.0,2.73547,1.46515,0.24257,1.4851,-9.40055
61709.6887,4.0,2.16054,1.50333,0.21479,1.5186,-8.13112
61710.3477,4.0,1.70952,1.53069,0.18918,1.54234,-7.04548
61711.1767,4.0,1.35352,1.5521,0.16426,1.56077,-6.04129
61712.2197,4.0,1.07079,1.56865,0.14293,1.57515,-5.20626
61713.5327,4.0,0.84734,1.58337,0.12506,1.5883,-4.51616
61715.1887,4.0,0.67072,1.59404,0.11243,1.598,-4.03452
61717.2777,4.0,0.53067,1.6023,0.10344,1.60564,-3.69379
61719.9137,4.0,0.41976,1.60858,0.09729,1.61152,-3.46131
61723.2457,4.0,0.33183,1.61563,0.09338,1.61833,-3.30802
61727.4517,4.0,0.26261,1.62249,0.09295,1.62515,-3.27893
61732.7597,4.0,0.20791,1.62941,0.09615,1.63225,-3.37694
61739.4637,4.0,0.16452,1.63646,0.10256,1.63968,-3.58624
61747.9407,4.0,0.13007,1.64492,0.1108,1.64865,-3.85357
61758.6307,4.0,0.10309,1.65696,0.12285,1.6615,-4.24016
61772.1437,4.0,0.08153,1.67173,0.14263,1.67781,-4.87649
61789.24171,4.0,0.06443,1.68776,0.16961,1.69626,-5.73849
61810.82871,4.0,0.05102,1.69898,0.19965,1.71067,-6.7023
61838.07071,4.0,0.04042,1.71414,0.22824,1.72927,-7.58439
61872.56671,4.0,0.03192,1.74123,0.25812,1.76025,-8.43217
61916.11371,4.0,0.02528,1.77717,0.2979,1.80197,-9.51585
61971.17971,4.0,0.01999,1.8178,0.34488,1.85022,-10.74281
76771.92752,5.0,20004.453,0.31118,-0.01421,0.3115,2.61408
76772.07052,5.0,15829.126,0.31868,0.00391,0.31871,-0.70304
76772.21252,5.0,12516.703,0.32687,0.02127,0.32756,-3.7237
76772.35452,5.0,9909.4424,0.3379,0.03594,0.33981,-6.07087
76772.51852,5.0,7835.48,0.3455,0.05033,0.34915,-8.28851
76772.71952,5.0,6217.2461,0.35934,0.06064,0.36443,-9.57921
76772.95752,5.0,4905.291,0.36952,0.07231,0.37653,-11.07254
76773.19552,5.0,3881.2737,0.38247,0.08146,0.39105,-12.02383
76773.43452,5.0,3070.9827,0.39718,0.0928,0.40788,-13.15153
76773.67252,5.0,2430.7778,0.41363,0.10055,0.42567,-13.66275
76773.91052,5.0,1923.1537,0.42973,0.11016,0.44363,-14.37773
76774.14852,5.0,1522.4358,0.44672,0.11917,0.46234,-14.93714
76774.38652,5.0,1203.8446,0.4659,0.12834,0.48326,-15.40104
76774.62552,5.0,952.86591,0.48522,0.13663,0.50409,-15.72661
76774.86352,5.0,754.27557,0.5063,0.14585,0.52689,-16.06993
76775.10052,5.0,596.71857,0.52726,0.15501,0.54958,-16.38299
76775.33852,5.0,471.96338,0.55078,0.16327,0.57447,-16.5115
76775.57752,5.0,373.20856,0.57564,0.17562,0.60183,-16.96664
76775.81552,5.0,295.47278,0.60127,0.18425,0.62887,-17.03713
76776.05452,5.0,233.87738,0.6298,0.19388,0.65897,-17.11063
76776.29252,5.0,185.05922,0.66002,0.20605,0.69144,-17.33781
76776.52852,5.0,146.35823,0.69062,0.21664,0.7238,-17.41564
76776.76552,5.0,115.77804,0.72378,0.22759,0.75872,-17.45571
76776.99952,5.0,91.6721,0.75935,0.23649,0.79533,-17.29881
76777.24452,5.0,72.51701,0.79695,0.2461,0.83409,-17.16048
76777.47352,5.0,57.36816,0.83569,0.25615,0.87407,-17.04092
76777.71052,5.0,45.3629,0.87745,0.26333,0.91611,-16.7049
76777.94252,5.0,35.93134,0.9175,0.27024,0.95647,-16.41172
76778.19352,5.0,28.40909,0.958,0.27641,0.99707,-16.09412
76778.40752,5.0,22.48202,1.001,0.28545,1.0409,-15.91622
76778.67252,5.0,17.79613,1.04502,0.29269,1.08523,-15.64643
76778.92452,5.0,14.06813,1.09237,0.30096,1.13307,-15.40352
76779.14052,5.0,11.1448,1.14597,0.30723,1.18644,-15.00775
76779.40752,5.0,8.81772,1.1975,0.31072,1.23715,-14.54608
76779.58552,5.0,6.97545,1.25554,0.31293,1.29395,-13.99541
76779.80452,5.0,5.5173,1.31415,0.29829,1.34758,-12.7884
76780.07352,5.0,4.36941,1.36611,0.28861,1.39627,-11.92921
76780.40852,5.0,3.45686,1.41671,0.2625,1.44083,-10.49732
76780.82752,5.0,2.73547,1.46225,0.23995,1.4818,-9.31888
76781.35252,5.0,2.16054,1.49537,0.21292,1.51045,-8.10352
76782.01152,5.0,1.70952,1.5236,0.18498,1.53479,-6.92247
76782.84052,5.0,1.35352,1.5459,0.16047,1.5542,-5.92614
76783.88352,5.0,1.07079,1.56357,0.14039,1.56986,-5.13072
76785.19652,5.0,0.84734,1.57564,0.12495,1.58059,-4.5342
76786.85252,5.0,0.67072,1.58532,0.11213,1.58928,-4.04593
76788.94153,5.0,0.53067,1.59346,0.10193,1.59672,-3.66018
76791.57853,5.0,0.41976,1.60101,0.09504,1.60383,-3.39707
76794.90953,5.0,0.33183,1.6078,0.09224,1.61044,-3.28342
76799.11553,5.0,0.26261,1.61435,0.09238,1.61699,-3.27526
76804.42353,5.0,0.20791,1.62129,0.09446,1.62404,-3.33431
76811.12753,5.0,0.16452,1.63051,0.10036,1.63359,-3.52206
76819.60453,5.0,0.13007,1.64088,0.11141,1.64466,-3.88408
76830.29453,5.0,0.10309,1.65114,0.12871,1.65615,-4.45737
76843.80853,5.0,0.08153,1.65958,0.14878,1.66624,-5.12295
76860.90653,5.0,0.06443,1.66957,0.17152,1.67835,-5.86545
76882.49253,5.0,0.05102,1.68625,0.19111,1.69704,-6.46591
76909.73554,5.0,0.04042,1.70986,0.22051,1.72402,-7.34844
76944.23054,5.0,0.03192,1.73709,0.25829,1.75618,-8.45745
76987.77855,5.0,0.02528,1.76757,0.2956,1.79212,-9.49414
77042.84355,5.0,0.01999,1.81452,0.33491,1.84517,-10.45749
91764.98433,6.0,20004.453,0.31231,-0.01384,0.31261,2.53812
91765.12733,6.0,15829.126,0.31955,0.00671,0.31962,-1.20263
91765.26933,6.0,12516.703,0.32894,0.02345,0.32977,-4.07719
91765.41133,6.0,9909.4424,0.33703,0.0367,0.33902,-6.214
91765.57533,6.0,7835.48,0.34696,0.05014,0.35056,-8.22242
91765.77633,6.0,6217.2461,0.35977,0.06074,0.36487,-9.58271
91766.01433,6.0,4905.291,0.37137,0.07173,0.37823,-10.93249
91766.25333,6.0,3881.2737,0.38438,0.08147,0.39292,-11.96663
91766.49133,6.0,3070.9827,0.39791,0.09116,0.40822,-12.90422
91766.72933,6.0,2430.7778,0.4142,0.10033,0.42618,-13.61594
91766.96733,6.0,1923.1537,0.42948,0.10943,0.44321,-14.2948
91767.20533,6.0,1522.4358,0.44731,0.117,0.46236,-14.65766
91767.44333,6.0,1203.8446,0.46629,0.12816,0.48358,-15.36793
91767.68233,6.0,952.86591,0.48508,0.13778,0.50427,-15.85675
91767.92033,6.0,754.27557,0.50654,0.14564,0.52706,-16.04096
91768.15733,6.0,596.71857,0.5277,0.15429,0.54979,-16.2981
91768.39533,6.0,471.96338,0.55047,0.16428,0.57446,-16.61752
91768.63433,6.0,373.20856,0.57629,0.1748,0.60221,-16.87374
91768.87233,6.0,295.47278,0.60321,0.1843,0.63074,-16.98949
91769.11133,6.0,233.87738,0.63013,0.19484,0.65957,-17.1818
91769.34933,6.0,185.05922,0.65943,0.20659,0.69103,-17.39473
91769.58533,6.0,146.35823,0.69198,0.2173,0.7253,-17.43348
91769.82233,6.0,115.77804,0.72572,0.22841,0.76081,-17.47046
91770.05633,6.0,91.6721,0.76062,0.23727,0.79677,-17.32505
91770.30133,6.0,72.51701,0.79834,0.24836,0.83608,-17.28058
91770.53033,6.0,57.36816,0.83793,0.25641,0.87628,-17.01426
91770.76733,6.0,45.3629,0.87916,0.26396,0.91793,-16.71167
91770.99933,6.0,35.93134,0.91865,0.27023,0.95757,-16.39168
91771.24933,6.0,28.40909,0.96051,0.27862,1.00011,-16.176
91771.46433,6.0,22.48202,1.00278,0.28661,1.04294,-15.95092
91771.72933,6.0,17.79613,1.04808,0.29473,1.08873,-15.70664
91771.98133,6.0,14.06813,1.09418,0.30301,1.13536,-15.47896
91772.19733,6.0,11.1448,1.14593,0.31057,1.18726,-15.16388
91772.46433,6.0,8.81772,1.20246,0.314,1.24278,-14.63476
91772.64333,6.0,6.97545,1.25633,0.30694,1.29328,-13.72911
91772.86133,6.0,5.5173,1.31417,0.30348,1.34875,-13.00341
91773.13033,6.0,4.36941,1.3685,0.28358,1.39757,-11.70724
91773.46533,6.0,3.45686,1.42277,0.26532,1.44729,-10.5632
91773.88433,6.0,2.73547,1.46339,0.24049,1.48302,-9.33242
91774.40933,6.0,2.16054,1.49865,0.21186,1.51355,-8.04644
91775.06833,6.0,1.70952,1.52724,0.18581,1.5385,-6.93668
91775.89733,6.0,1.35352,1.54852,0.16206,1.55698,-5.97467
91776.94033,6.0,1.07079,1.56423,0.14086,1.57056,-5.14575
91778.25433,6.0,0.84734,1.57784,0.12291,1.58262,-4.45408
