time/s,cycle number,freq/Hz,Re(Z)/Ohm,-Im(Z)/Ohm,|Z|/Ohm,Phase(Z)/deg
11074.14471,1.0,20004.453,0.28773,-0.01437,0.28809,2.85973
11074.28671,1.0,15829.126,0.29589,0.00488,0.29593,-0.94451
11074.42871,1.0,12516.703,0.30327,0.02336,0.30416,-4.40505
11074.57071,1.0,9909.4424,0.31464,0.0381,0.31694,-6.90442
11074.73571,1.0,7835.48,0.32542,0.05051,0.32931,-8.82319
11074.93571,1.0,6217.2461,0.33726,0.062,0.34291,-10.4167
11075.17371,1.0,4905.291,0.35023,0.0749,0.35815,-12.072
11075.41271,1.0,3881.2737,0.36432,0.08481,0.37406,-13.10437
11075.65071,1.0,3070.9827,0.37928,0.09415,0.39079,-13.94088
11075.88871,1.0,2430.7778,0.3929,0.10395,0.40642,-14.81965
11076.12671,1.0,1923.1537,0.4105,0.11186,0.42547,-15.24257
11076.36471,1.0,1522.4358,0.42826,0.12136,0.44513,-15.82188
11076.60271,1.0,1203.8446,0.44874,0.12968,0.4671,-16.11911
11076.84171,1.0,952.86591,0.4678,0.13838,0.48784,-16.47842
11077.07971,1.0,754.27557,0.48948,0.1482,0.51142,-16.84491
11077.31771,1.0,596.71857,0.51211,0.15678,0.53558,-17.0215
11077.55471,1.0,471.96338,0.53636,0.16711,0.56179,-17.30564
11077.79371,1.0,373.20856,0.56234,0.17534,0.58904,-17.31736
11078.03171,1.0,295.47278,0.59006,0.18529,0.61847,-17.43333
11078.27071,1.0,233.87738,0.61762,0.19474,0.64759,-17.50004
11078.50871,1.0,185.05922,0.64833,0.20264,0.67926,-17.35688
11078.74471,1.0,146.35823,0.67962,0.21306,0.71224,-17.40641
11078.98171,1.0,115.77804,0.71289,0.22163,0.74654,-17.27011
11079.21571,1.0,91.6721,0.74765,0.2283,0.78173,-16.98026
11079.46071,1.0,72.51701,0.78447,0.23649,0.81934,-16.77629
11079.68971,1.0,57.36816,0.82255,0.2419,0.85738,-16.38754
11079.92671,1.0,45.3629,0.86084,0.24818,0.8959,-16.08216
11080.15871,1.0,35.93134,0.89848,0.25217,0.93319,-15.67766
11080.40871,1.0,28.40909,0.93658,0.25772,0.97139,-15.38517
11080.62371,1.0,22.48202,0.97684,0.25991,1.01083,-14.89938
11080.88871,1.0,17.79613,1.02053,0.26522,1.05443,-14.56812
11081.14071,1.0,14.06813,1.06269,0.26714,1.09576,-14.11048
11081.35671,1.0,11.1448,1.10702,0.26944,1.13934,-13.6793
11081.62371,1.0,8.81772,1.15527,0.26607,1.18552,-12.9698
11081.80171,1.0,6.97545,1.20538,0.25587,1.23224,-11.98434
11082.01971,1.0,5.5173,1.24612,0.25057,1.27107,-11.36922
11082.28971,1.0,4.36941,1.29031,0.23162,1.31093,-10.17679
11082.62471,1.0,3.45686,1.32683,0.21353,1.34391,-9.14229
11083.04271,1.0,2.73547,1.36058,0.19005,1.37379,-7.95174
11083.56871,1.0,2.16054,1.39161,0.16888,1.40182,-6.91915
11084.22771,1.0,1.70952,1.41582,0.15536,1.42432,-6.26227
11085.05571,1.0,1.35352,1.43041,0.14512,1.43775,-5.79311
11086.09871,1.0,1.07079,1.43832,0.13257,1.44442,-5.26612
11087.41271,1.0,0.84734,1.44311,0.11957,1.44806,-4.7366
11089.06871,1.0,0.67072,1.45024,0.10642,1.45414,-4.19678
11091.15671,1.0,0.53067,1.45977,0.09282,1.46272,-3.63844
11093.79372,1.0,0.41976,1.47702,0.08256,1.47932,-3.19922
11097.12472,1.0,0.33183,1.49865,0.08158,1.50087,-3.11587
11101.33072,1.0,0.26261,1.52193,0.09404,1.52483,-3.5358
11106.63872,1.0,0.20791,1.53521,0.11753,1.5397,-4.37769
11113.34372,1.0,0.16452,1.53672,0.14448,1.5435,-5.37089
11121.81972,1.0,0.13007,1.52743,0.16508,1.53632,-6.16831
11132.50972,1.0,0.10309,1.51791,0.17384,1.52784,-6.53342
11146.02372,1.0,0.08153,1.51882,0.17425,1.52878,-6.54461
11163.12172,1.0,0.06443,1.53483,0.17869,1.5452,-6.64082
11184.70772,1.0,0.05102,1.56563,0.18813,1.5769,-6.85202
11211.94972,1.0,0.04042,1.60957,0.21169,1.62343,-7.49239
11246.44572,1.0,0.03192,1.66478,0.25572,1.6843,-8.73284
11289.99272,1.0,0.02528,1.71903,0.32537,1.74955,-10.71795
11345.05773,1.0,0.01999,1.76029,0.41452,1.80844,-13.25098
26368.81924,2.0,20004.453,0.28897,-0.01311,0.28926,2.59827
26368.96124,2.0,15829.126,0.29879,0.00561,0.29884,-1.07493
26369.10324,2.0,12516.703,0.30807,0.02373,0.30898,-4.40396
26369.24524,2.0,9909.4424,0.31798,0.03899,0.32037,-6.99114
26369.41024,2.0,7835.48,0.32949,0.05188,0.33355,-8.94757
26369.61024,2.0,6217.2461,0.33944,0.06347,0.34533,-10.59159
26369.84924,2.0,4905.291,0.35439,0.07628,0.36251,-12.14654
26370.08724,2.0,3881.2737,0.36888,0.08586,0.37874,-13.10356
26370.32524,2.0,3070.9827,0.38257,0.09589,0.3944,-14.07037
26370.56324,2.0,2430.7778,0.39951,0.10513,0.41311,-14.74291
26370.80124,2.0,1923.1537,0.4151,0.11429,0.43054,-15.39362
26371.03924,2.0,1522.4358,0.43308,0.12295,0.4502,-15.84855
26371.27724,2.0,1203.8446,0.45123,0.13263,0.47032,-16.38018
26371.51624,2.0,952.86591,0.47388,0.14124,0.49448,-16.5964
26371.75424,2.0,754.27557,0.49402,0.15087,0.51654,-16.98188
26371.99224,2.0,596.71857,0.51747,0.15953,0.5415,-17.13385
26372.22924,2.0,471.96338,0.54167,0.16912,0.56746,-17.33936
26372.46824,2.0,373.20856,0.56751,0.17767,0.59467,-17.38344
26372.70624,2.0,295.47278,0.59526,0.18853,0.6244,-17.57408
26372.94524,2.0,233.87738,0.62226,0.19775,0.65292,-17.63039
26373.18324,2.0,185.05922,0.65437,0.20685,0.68628,-17.54169
26373.41924,2.0,146.35823,0.68646,0.21639,0.71976,-17.49642
26373.65624,2.0,115.77804,0.72168,0.22433,0.75574,-17.26747
26373.89024,2.0,91.6721,0.75625,0.23289,0.79129,-17.1164
26374.13624,2.0,72.51701,0.79334,0.2405,0.82899,-16.86454
26374.36524,2.0,57.36816,0.83216,0.24584,0.86771,-16.45857
26374.60124,2.0,45.3629,0.8702,0.25164,0.90585,-16.1284
26374.83424,2.0,35.93134,0.90919,0.25678,0.94476,-15.77087
26375.08424,2.0,28.40909,0.94869,0.26027,0.98375,-15.34129
26375.29824,2.0,22.48202,0.99071,0.26359,1.02518,-14.89881
26375.56324,2.0,17.79613,1.03071,0.26988,1.06545,-14.67301
26375.81524,2.0,14.06813,1.07643,0.27241,1.11036,-14.20149
26376.03224,2.0,11.1448,1.1205,0.27189,1.15302,-13.63906
26376.29924,2.0,8.81772,1.17005,0.26934,1.20065,-12.96349
26376.47724,2.0,6.97545,1.21891,0.2683,1.24809,-12.41365
26376.69524,2.0,5.5173,1.26339,0.25128,1.28814,-11.24907
26376.96424,2.0,4.36941,1.30653,0.23947,1.3283,-10.38625
26377.30024,2.0,3.45686,1.34649,0.21599,1.3637,-9.11311
26377.71824,2.0,2.73547,1.38615,0.19784,1.4002,-8.1229
26378.24324,2.0,2.16054,1.41302,0.1828,1.42479,-7.37152
26378.90324,2.0,1.70952,1.42984,0.16468,1.43929,-6.5699
26379.73124,2.0,1.35352,1.44328,0.1468,1.45073,-5.80775
26380.77424,2.0,1.07079,1.45378,0.12823,1.45943,-5.04069
26382.08824,2.0,0.84734,1.46711,0.11122,1.47132,-4.33508
26383.74324,2.0,0.67072,1.48194,0.09769,1.48515,-3.77148
26385.83224,2.0,0.53067,1.50158,0.09032,1.50429,-3.44222
26388.46924,2.0,0.41976,1.52141,0.0942,1.52432,-3.54287
26391.80024,2.0,0.33183,1.53527,0.10858,1.5391,-4.04558
26396.00624,2.0,0.26261,1.53759,0.12645,1.54278,-4.70142
26401.31424,2.0,0.20791,1.53122,0.14075,1.53768,-5.25175
26408.01824,2.0,0.16452,1.52307,0.14464,1.52993,-5.42471
26416.49524,2.0,0.13007,1.52249,0.14071,1.52898,-5.28026
26427.18524,2.0,0.10309,1.53533,0.13581,1.54133,-5.05487
26440.69924,2.0,0.08153,1.56204,0.13868,1.56819,-5.07358
26457.79624,2.0,0.06443,1.59653,0.15737,1.60427,-5.62947
26479.38324,2.0,0.05102,1.63959,0.18969,1.65053,-6.59949
26506.62524,2.0,0.04042,1.68217,0.24594,1.70005,-8.3181
26541.12024,2.0,0.03192,1.70984,0.31972,1.73948,-10.59129
26584.66825,2.0,0.02528,1.71828,0.39149,1.76231,-12.83508
26639.73325,2.0,0.01999,1.72468,0.44472,1.7811,-14.45909
41268.47726,3.0,20004.453,0.29087,-0.01236,0.29114,2.43246
41268.61926,3.0,15829.126,0.29952,0.00832,0.29963,-1.5905
41268.76126,3.0,12516.703,0.30976,0.02372,0.31067,-4.37953
41268.90326,3.0,9909.4424,0.31903,0.03963,0.32148,-7.08062
41269.06826,3.0,7835.48,0.33001,0.05295,0.33423,-9.116
41269.26826,3.0,6217.2461,0.34052,0.06501,0.34667,-10.80868
41269.50626,3.0,4905.291,0.35507,0.07589,0.36309,-12.06482
41269.74526,3.0,3881.2737,0.36917,0.08567,0.37898,-13.06425
41269.98326,3.0,3070.9827,0.38337,0.09583,0.39517,-14.03497
41270.22126,3.0,2430.7778,0.39953,0.10514,0.41313,-14.74333
41270.45926,3.0,1923.1537,0.41803,0.11548,0.43369,-15.44227
41270.69726,3.0,1522.4358,0.43354,0.1233,0.45073,-15.87564
41270.93526,3.0,1203.8446,0.45377,0.13203,0.47259,-16.22272
41271.17426,3.0,952.86591,0.47467,0.14156,0.49533,-16.60586
41271.41226,3.0,754.27557,0.49566,0.14884,0.51752,-16.71409
41271.65026,3.0,596.71857,0.51903,0.16056,0.5433,-17.18899
41271.88726,3.0,471.96338,0.54522,0.16951,0.57096,-17.2704
41272.12626,3.0,373.20856,0.56943,0.1794,0.59702,-17.48725
41272.36426,3.0,295.47278,0.59744,0.18915,0.62667,-17.56784
41272.60326,3.0,233.87738,0.62488,0.19759,0.65538,-17.54695
41272.84126,3.0,185.05922,0.65711,0.20881,0.68949,-17.62842
41273.07726,3.0,146.35823,0.68968,0.21674,0.72293,-17.44627
41273.31426,3.0,115.77804,0.72357,0.22488,0.75771,-17.26466
41273.54826,3.0,91.6721,0.75853,0.23279,0.79344,-17.06138
41273.79326,3.0,72.51701,0.7952,0.23991,0.8306,-16.78871
41274.02326,3.0,57.36816,0.83461,0.24755,0.87055,-16.52064
41274.25926,3.0,45.3629,0.87273,0.25296,0.90865,-16.16394
41274.49126,3.0,35.93134,0.91262,0.25701,0.94812,-15.72825
41274.74226,3.0,28.40909,0.95308,0.2617,0.98836,-15.3538
41274.95626,3.0,22.48202,0.99265,0.26555,1.02755,-14.97706
41275.22126,3.0,17.79613,1.0353,0.26995,1.06991,-14.61409
41275.47326,3.0,14.06813,1.08088,0.27551,1.11544,-14.29966
41275.68926,3.0,11.1448,1.12767,0.27643,1.16106,-13.77371
41275.95726,3.0,8.81772,1.17718,0.27388,1.20863,-13.09735
41276.13526,3.0,6.97545,1.22311,0.27017,1.25259,-12.45573
41276.35326,3.0,5.5173,1.27026,0.25669,1.29594,-11.4241
41276.62226,3.0,4.36941,1.31199,0.23827,1.33345,-10.29308
41276.95726,3.0,3.45686,1.35614,0.21856,1.37364,-9.15516
41277.37626,3.0,2.73547,1.39292,0.20321,1.40766,-8.30029
41277.90126,3.0,2.16054,1.41692,0.18573,1.42904,-7.46782
41278.56026,3.0,1.70952,1.43586,0.16545,1.44536,-6.57308
41279.38826,3.0,1.35352,1.4501,0.14574,1.45741,-5.73931
41280.43126,3.0,1.07079,1.46456,0.12651,1.47002,-4.93709
41281.74526,3.0,0.84734,1.48033,0.10938,1.48436,-4.22576
41283.40126,3.0,0.67072,1.49793,0.09907,1.5012,-3.78396
41285.49026,3.0,0.53067,1.51776,0.09656,1.52083,-3.6404
41288.12626,3.0,0.41976,1.53271,0.10568,1.53635,-3.94429
41291.45826,3.0,0.33183,1.53847,0.12073,1.5432,-4.48715
41295.66326,3.0,0.26261,1.53334,0.13227,1.53904,-4.93044
41300.97126,3.0,0.20791,1.52657,0.13552,1.53257,-5.07309
41307.67626,3.0,0.16452,1.52459,0.13098,1.5302,-4.91045
41316.15226,3.0,0.13007,1.53443,0.12451,1.53947,-4.63924
41326.84226,3.0,0.10309,1.55695,0.12336,1.56183,-4.53014
41340.35626,3.0,0.08153,1.59134,0.13477,1.59704,-4.84081
41357.45427,3.0,0.06443,1.62794,0.16361,1.63614,-5.73916
41379.04027,3.0,0.05102,1.66663,0.21063,1.67988,-7.20282
41406.28327,3.0,0.04042,1.69185,0.27654,1.71431,-9.28298
41440.77827,3.0,0.03192,1.69951,0.34328,1.73383,-11.4195
41484.32527,3.0,0.02528,1.69936,0.39412,1.74447,-13.05717
41539.39027,3.0,0.01999,1.71589,0.42881,1.76866,-14.03112
55948.02054,4.0,20004.453,0.29018,-0.01435,0.29053,2.83186
55948.16254,4.0,15829.126,0.29919,0.00731,0.29928,-1.39962
55948.30454,4.0,12516.703,0.30889,0.02524,0.30992,-4.67221
55948.44654,4.0,9909.4424,0.31949,0.03902,0.32187,-6.96304
55948.61154,4.0,7835.48,0.33142,0.05299,0.33563,-9.08435
55948.81154,4.0,6217.2461,0.34321,0.0652,0.34935,-10.75662
55949.05054,4.0,4905.291,0.35442,0.07542,0.36236,-12.01386
55949.28854,4.0,3881.2737,0.37073,0.08455,0.38025,-12.84728
55949.52654,4.0,3070.9827,0.38528,0.09632,0.39714,-14.03571
55949.76454,4.0,2430.7778,0.40104,0.1045,0.41443,-14.60501
55950.00254,4.0,1923.1537,0.41707,0.11419,0.43242,-15.31176
55950.24054,4.0,1522.4358,0.43529,0.12358,0.4525,-15.84962
55950.47854,4.0,1203.8446,0.45527,0.13246,0.47415,-16.22245
55950.71754,4.0,952.86591,0.47287,0.14184,0.49368,-16.69644
55950.95554,4.0,754.27557,0.49567,0.15218,0.51851,-17.06759
55951.19354,4.0,596.71857,0.5192,0.16027,0.54337,-17.15496
55951.43054,4.0,471.96338,0.54536,0.16943,0.57107,-17.25904
55951.66954,4.0,373.20856,0.57012,0.17941,0.59769,-17.46821
55951.90754,4.0,295.47278,0.59615,0.18811,0.62512,-17.51269
55952.14654,4.0,233.87738,0.62648,0.19793,0.65701,-17.53356
55952.38454,4.0,185.05922,0.65824,0.20693,0.69,-17.4518
55952.62054,4.0,146.35823,0.69027,0.216,0.72328,-17.37626
55952.85754,4.0,115.77804,0.72251,0.22614,0.75707,-17.37983
55953.09154,4.0,91.6721,0.75834,0.23435,0.79372,-17.17284
55953.33654,4.0,72.51701,0.79594,0.24185,0.83187,-16.90149
55953.56654,4.0,57.36816,0.83462,0.24692,0.87038,-16.48085
55953.80254,4.0,45.3629,0.87497,0.25316,0.91086,-16.13691
55954.03454,4.0,35.93134,0.91369,0.25675,0.94908,-15.69525
55954.28554,4.0,28.40909,0.95389,0.26324,0.98955,-15.42781
55954.49954,4.0,22.48202,0.99327,0.26747,1.02865,-15.07107
55954.76454,4.0,17.79613,1.03766,0.27259,1.07287,-14.71912
55955.01654,4.0,14.06813,1.08149,0.27514,1.11594,-14.27352
55955.23254,4.0,11.1448,1.12893,0.27818,1.1627,-13.84256
55955.50054,4.0,8.81772,1.17754,0.27522,1.20928,-13.15513
55955.67854,4.0,6.97545,1.22553,0.26587,1.25403,-12.24007
55955.89654,4.0,5.5173,1.27115,0.26119,1.29771,-11.61137
55956.16554,4.0,4.36941,1.31566,0.24304,1.33792,-10.46612
55956.50054,4.0,3.45686,1.35608,0.22332,1.37435,-9.3516
55956.91954,4.0,2.73547,1.38777,0.19977,1.40208,-8.19145
55957.44454,4.0,2.16054,1.42229,0.17713,1.43328,-7.0989
55958.10354,4.0,1.70952,1.44966,0.16183,1.45867,-6.36988
55958.93254,4.0,1.35352,1.46625,0.15053,1.47396,-5.86176
55959.97554,4.0,1.07079,1.47638,0.13986,1.48299,-5.41166
55961.28854,4.0,0.84734,1.48155,0.12799,1.48707,-4.93739
55962.94454,4.0,0.67072,1.48761,0.11532,1.49207,-4.43271
55965.03354,4.0,0.53067,1.4961,0.10062,1.49948,-3.84764
55967.67054,4.0,0.41976,1.5109,0.08872,1.5135,-3.3605
55971.00154,4.0,0.33183,1.53244,0.08438,1.53477,-3.15171
55975.20754,4.0,0.26261,1.55678,0.09255,1.55952,-3.40217
55980.51554,4.0,0.20791,1.57569,0.11422,1.57982,-4.1461
55987.21954,4.0,0.16452,1.58259,0.14348,1.58908,-5.18023
55995.69654,4.0,0.13007,1.57682,0.16966,1.58592,-6.14112
56006.38654,4.0,0.10309,1.56617,0.18485,1.57704,-6.73117
56019.90054,4.0,0.08153,1.56347,0.18902,1.57485,-6.89334
56036.99754,4.0,0.06443,1.57498,0.19429,1.58692,-7.03236
56058.58354,4.0,0.05102,1.60166,0.20214,1.61436,-7.19294
56085.82654,4.0,0.04042,1.64286,0.22181,1.65776,-7.6893
56120.32155,4.0,0.03192,1.69644,0.25926,1.71614,-8.68913
56163.86955,4.0,0.02528,1.75697,0.32171,1.78618,-10.37621
56218.93455,4.0,0.01999,1.80988,0.40811,1.85532,-12.70703
70512.29493,5.0,20004.453,0.29358,-0.01375,0.2939,2.68191
70512.43693,5.0,15829.126,0.29997,0.00661,0.30005,-1.26271
70512.57893,5.0,12516.703,0.30895,0.02495,0.30995,-4.61632
70512.72093,5.0,9909.4424,0.31976,0.0389,0.32212,-6.9362
70512.88593,5.0,7835.48,0.33175,0.05225,0.33584,-8.95028
70513.08593,5.0,6217.2461,0.34296,0.06452,0.34898,-10.65498
70513.32393,5.0,4905.291,0.35474,0.07628,0.36285,-12.13517
70513.56293,5.0,3881.2737,0.36865,0.08514,0.37835,-13.00414
70513.80093,5.0,3070.9827,0.38438,0.09541,0.39604,-13.93955
70514.03893,5.0,2430.7778,0.40046,0.10272,0.41343,-14.38689
70514.27693,5.0,1923.1537,0.41733,0.11343,0.43247,-15.20587
70514.51493,5.0,1522.4358,0.43467,0.12457,0.45217,-15.99141
70514.75293,5.0,1203.8446,0.45441,0.13183,0.47315,-16.17874
70514.99193,5.0,952.86591,0.47451,0.1426,0.49547,-16.72628
70515.22993,5.0,754.27557,0.49646,0.15097,0.51891,-16.91445
70515.46793,5.0,596.71857,0.51891,0.1619,0.54358,-17.32784
70515.70493,5.0,471.96338,0.54515,0.16946,0.57088,-17.26787
70515.94393,5.0,373.20856,0.57034,0.1798,0.59801,-17.49759
70516.18193,5.0,295.47278,0.59815,0.18878,0.62723,-17.51565
70516.42093,5.0,233.87738,0.62579,0.19832,0.65646,-17.58365
70516.65893,5.0,185.05922,0.65692,0.20863,0.68926,-17.61914
70516.89493,5.0,146.35823,0.69038,0.21709,0.72371,-17.45591
70517.13193,5.0,115.77804,0.72293,0.22685,0.75769,-17.42173
70517.36593,5.0,91.6721,0.76022,0.23451,0.79557,-17.14362
70517.61093,5.0,72.51701,0.79785,0.24067,0.83336,-16.78601
70517.83993,5.0,57.36816,0.83523,0.24811,0.8713,-16.544
70518.07693,5.0,45.3629,0.87335,0.25268,0.90916,-16.13644
70518.30893,5.0,35.93134,0.9113,0.25803,0.94713,-15.80903
70518.55993,5.0,28.40909,0.95359,0.26323,0.98925,-15.43146
70518.77393,5.0,22.48202,0.99478,0.26678,1.02993,-15.01254
70519.03893,5.0,17.79613,1.03751,0.27174,1.07251,-14.67682
70519.29093,5.0,14.06813,1.07932,0.27715,1.11433,-14.40122
70519.50693,5.0,11.1448,1.12737,0.2764,1.16076,-13.77578
70519.77393,5.0,8.81772,1.1769,0.2782,1.20933,-13.29991
70519.95193,5.0,6.97545,1.22484,0.26671,1.25355,-12.28438
70520.16993,5.0,5.5173,1.26993,0.25971,1.29622,-11.55816
70520.43993,5.0,4.36941,1.32048,0.24057,1.34222,-10.32504
70520.77493,5.0,3.45686,1.36064,0.2278,1.37958,-9.50419
70521.19293,5.0,2.73547,1.39182,0.20772,1.40724,-8.4884
70521.71893,5.0,2.16054,1.41735,0.1853,1.42941,-7.44841
70522.37793,5.0,1.70952,1.43877,0.16231,1.4479,-6.43659
70523.20593,5.0,1.35352,1.45794,0.14042,1.46469,-5.50122
70524.24893,5.0,1.07079,1.47694,0.12266,1.48202,-4.74733
70525.56293,5.0,0.84734,1.49739,0.11296,1.50164,-4.31423
70527.21893,5.0,0.67072,1.51449,0.11037,1.5185,-4.16828
70529.30693,5.0,0.53067,1.5235,0.11701,1.52799,-4.39196
70531.94393,5.0,0.41976,1.52413,0.12325,1.5291,-4.62331
70535.27493,5.0,0.33183,1.51967,0.12406,1.52473,-4.66699
70539.48093,5.0,0.26261,1.51711,0.11887,1.52176,-4.48002
70544.78893,5.0,0.20791,1.52307,0.10925,1.52699,-4.10284
70551.49393,5.0,0.16452,1.53982,0.10224,1.54321,-3.79886
70559.96993,5.0,0.13007,1.5675,0.10524,1.57103,-3.84118
70570.65993,5.0,0.10309,1.60112,0.12263,1.60581,-4.37972
70584.17394,5.0,0.08153,1.63306,0.15891,1.64077,-5.55785
70601.27094,5.0,0.06443,1.65452,0.20628,1.66733,-7.10682
70622.85794,5.0,0.05102,1.65868,0.26203,1.67924,-8.97713
70650.09994,5.0,0.04042,1.65219,0.30578,1.68025,-10.48535
70684.59595,5.0,0.03192,1.65381,0.33363,1.68713,-11.40541
70728.14295,5.0,0.02528,1.67638,0.35616,1.7138,-11.99448
70783.20796,5.0,0.01999,1.72243,0.38732,1.76544,-12.67305
84994.88205,6.0,20004.453,0.29216,-0.01237,0.29242,2.4237
84995.02405,6.0,15829.126,0.30043,0.00776,0.30053,-1.47872
84995.16605,6.0,12516.703,0.30916,0.02348,0.31005,-4.34303
84995.30805,6.0,9909.4424,0.31818,0.03975,0.32065,-7.12148
84995.47305,6.0,7835.48,0.32986,0.05255,0.33402,-9.05222
84995.67305,6.0,6217.2461,0.34161,0.06412,0.34758,-10.631
84995.91205,6.0,4905.291,0.35581,0.07393,0.36341,-11.73872
84996.15005,6.0,3881.2737,0.36901,0.0849,0.37865,-12.95619
84996.38805,6.0,3070.9827,0.38325,0.0961,0.39512,-14.0772
84996.62605,6.0,2430.7778,0.39842,0.10465,0.41193,-14.71748
84996.86405,6.0,1923.1537,0.41723,0.11317,0.43231,-15.1763
84997.10205,6.0,1522.4358,0.43484,0.12334,0.45199,-15.83543
84997.34005,6.0,1203.8446,0.45412,0.13271,0.47312,-16.29042
84997.57905,6.0,952.86591,0.47504,0.14245,0.49594,-16.69181
84997.81705,6.0,754.27557,0.49595,0.15158,0.5186,-16.99549
84998.05505,6.0,596.71857,0.51762,0.16156,0.54225,-17.33385
84998.29205,6.0,471.96338,0.54234,0.17053,0.56852,-17.45516
84998.53105,6.0,373.20856,0.56965,0.17847,0.59695,-17.39603
84998.76905,6.0,295.47278,0.59667,0.18856,0.62576,-17.53774
84999.00805,6.0,233.87738,0.6261,0.19868,0.65687,-17.60599
84999.24605,6.0,185.05922,0.65608,0.20701,0.68796,-17.51169
84999.48206,6.0,146.35823,0.68816,0.21758,0.72174,-17.5457
84999.71906,6.0,115.77804,0.72333,0.22473,0.75744,-17.25912
84999.95306,6.0,91.6721,0.75681,0.23273,0.79179,-17.0936
85000.19806,6.0,72.51701,0.79483,0.24039,0.83038,-16.82739
85000.42806,6.0,57.36816,0.83245,0.24711,0.86835,-16.53342
85000.66406,6.0,45.3629,0.87274,0.25255,0.90854,-16.13908
85000.89606,6.0,35.93134,0.91145,0.25514,0.94648,-15.63856
85001.14706,6.0,28.40909,0.95144,0.26205,0.98687,-15.39874
85001.36106,6.0,22.48202,0.99328,0.26774,1.02873,-15.08532
85001.62606,6.0,17.79613,1.03462,0.27138,1.06961,-14.69744
85001.87806,6.0,14.06813,1.079,0.27632,1.11382,-14.36412
85002.09406,6.0,11.1448,1.125,0.27583,1.15833,-13.77612
85002.36206,6.0,8.81772,1.17568,0.27345,1.20706,-13.09341
85002.54006,6.0,6.97545,1.22006,0.27253,1.25013,-12.59143
85002.75806,6.0,5.5173,1.27063,0.25705,1.29637,-11.43685
85003.02706,6.0,4.36941,1.31173,0.24352,1.33414,-10.51711
85003.36206,6.0,3.45686,1.35681,0.22009,1.37455,-9.2139
85003.78106,6.0,2.73547,1.39427,0.20462,1.40921,-8.34886
85004.30606,6.0,2.16054,1.42003,0.18775,1.43239,-7.53189
85004.96406,6.0,1.70952,1.43908,0.16814,1.44887,-6.66413
85005.79306,6.0,1.35352,1.4532,0.14918,1.46084,-5.86116
85006.83506,6.0,1.07079,1.46648,0.1284,1.4721,-5.00387
