time/s,cycle number,freq/Hz,Re(Z)/Ohm,-Im(Z)/Ohm,|Z|/Ohm,Phase(Z)/deg
14257.30079,1.0,20004.453,0.33329,-0.0137,0.33357,2.35413
14257.44279,1.0,15829.126,0.33772,0.00194,0.33772,-0.32996
14257.58479,1.0,12516.703,0.34527,0.02023,0.34586,-3.35242
14257.72679,1.0,9909.4424,0.35637,0.03284,0.35788,-5.26555
14257.89179,1.0,7835.48,0.365,0.0437,0.3676,-6.82724
14258.09179,1.0,6217.2461,0.37481,0.05657,0.37905,-8.58336
14258.55079,1.0,4905.291,0.38619,0.06566,0.39173,-9.64978
14258.78879,1.0,3881.2737,0.39707,0.07408,0.40392,-10.5686
14259.02679,1.0,3070.9827,0.40935,0.08325,0.41773,-11.49526
14259.26479,1.0,2430.7778,0.42382,0.09134,0.43355,-12.16182
14259.50379,1.0,1923.1537,0.43972,0.1015,0.45128,-12.99811
14259.74079,1.0,1522.4358,0.45315,0.10677,0.46556,-13.25844
14259.97979,1.0,1203.8446,0.47177,0.11504,0.4856,-13.70336
14260.21779,1.0,952.86591,0.48845,0.1232,0.50374,-14.15678
14260.45679,1.0,754.27557,0.50492,0.13261,0.52204,-14.71567
14260.69379,1.0,596.71857,0.52721,0.13866,0.54514,-14.73507
14260.93079,1.0,471.96338,0.54743,0.14887,0.56731,-15.21378
14261.16979,1.0,373.20856,0.57199,0.15948,0.5938,-15.57911
14261.40779,1.0,295.47278,0.59241,0.16509,0.61499,-15.57165
14261.64579,1.0,233.87738,0.61811,0.17484,0.64237,-15.79433
14261.88379,1.0,185.05922,0.64339,0.18356,0.66906,-15.92365
14262.11979,1.0,146.35823,0.67571,0.19775,0.70405,-16.31234
14262.35679,1.0,115.77804,0.70613,0.20505,0.7353,-16.19275
14262.59079,1.0,91.6721,0.73613,0.21096,0.76577,-15.99082
14262.83679,1.0,72.51701,0.77153,0.22578,0.80389,-16.31153
14263.06579,1.0,57.36816,0.79147,0.24195,0.82762,-16.99856
14263.30179,1.0,45.3629,0.82659,0.25434,0.86484,-17.10316
14263.53479,1.0,35.93134,0.87596,0.24442,0.90942,-15.5909
14263.78479,1.0,28.40909,0.91381,0.27781,0.95511,-16.91014
14263.99879,1.0,22.48202,0.95987,0.28254,1.00059,-16.40198
14264.26379,1.0,17.79613,0.99256,0.27669,1.0304,-15.57635
14264.51679,1.0,14.06813,0.99079,0.32078,1.04143,-17.94019
14264.73279,1.0,11.1448,1.10284,0.31364,1.14657,-15.87514
14264.99979,1.0,8.81772,1.10138,0.39623,1.17049,-19.78676
14265.17779,1.0,6.97545,1.14024,0.3449,1.19126,-16.82926
14265.39579,1.0,5.5173,1.27921,0.30687,1.3155,-13.48984
14265.66479,1.0,4.36941,1.41708,0.38891,1.46948,-15.34651
14266.00079,1.0,3.45686,1.42218,0.47027,1.49791,-18.29744
14266.41879,1.0,2.73547,1.37225,0.44083,1.44132,-17.80951
14266.94379,1.0,2.16054,1.35733,0.30626,1.39145,-12.71484
14267.60379,1.0,1.70952,1.43892,0.13722,1.44545,-5.44727
14268.43179,1.0,1.35352,1.60963,0.03511,1.61001,-1.24945
14269.47479,1.0,1.07079,1.79179,0.06628,1.79302,-2.11859
14270.78879,1.0,0.84734,1.88511,0.21751,1.89762,-6.58197
14272.44479,1.0,0.67072,1.84488,0.38453,1.88452,-11.77379
14274.53279,1.0,0.53067,1.63584,0.51844,1.71603,-17.58469
14277.16979,1.0,0.41976,1.35722,0.47874,1.43918,-19.4296
14280.5008,1.0,0.33183,1.15703,0.26039,1.18597,-12.68327
14284.7068,1.0,0.26261,1.14252,-0.03099,1.14294,1.55353
14290.0148,1.0,0.20791,1.32206,-0.24807,1.34513,10.62738
14296.7198,1.0,0.16452,1.59534,-0.28699,1.62095,10.19789
14305.1958,1.0,0.13007,1.82196,-0.13642,1.82706,4.28206
14315.8858,1.0,0.10309,1.89312,0.10786,1.89619,-3.26078
14329.3998,1.0,0.08153,1.8109,0.3125,1.83766,-9.79105
14346.4978,1.0,0.06443,1.68332,0.38962,1.72782,-13.0321
14368.0848,1.0,0.05102,1.56953,0.37349,1.61335,-13.38542
14395.3268,1.0,0.04042,1.54224,0.31142,1.57337,-11.41598
14429.8228,1.0,0.03192,1.5831,0.26479,1.6051,-9.49543
14473.3698,1.0,0.02528,1.65684,0.24593,1.67499,-8.44306
14528.43481,1.0,0.01999,1.75469,0.24741,1.77205,-8.02574
29954.04611,2.0,20004.453,0.33919,-0.01314,0.33945,2.21819
29954.18811,2.0,15829.126,0.34244,0.00283,0.34245,-0.47414
29954.33011,2.0,12516.703,0.34893,0.02152,0.3496,-3.52901
29954.47211,2.0,9909.4424,0.36084,0.03376,0.36242,-5.34548
29954.78011,2.0,7835.48,0.36769,0.04425,0.37034,-6.86205
29954.98111,2.0,6217.2461,0.37942,0.05486,0.38337,-8.22681
29955.21911,2.0,4905.291,0.3911,0.06587,0.39661,-9.56075
29955.45811,2.0,3881.2737,0.40234,0.07556,0.40938,-10.63568
29955.69611,2.0,3070.9827,0.41515,0.08398,0.42356,-11.43649
29955.93411,2.0,2430.7778,0.42975,0.09215,0.43952,-12.10222
29956.17211,2.0,1923.1537,0.44257,0.10044,0.45383,-12.78589
29956.41011,2.0,1522.4358,0.45879,0.1074,0.47119,-13.17531
29956.64811,2.0,1203.8446,0.47557,0.11757,0.48989,-13.8867
29956.88711,2.0,952.86591,0.49353,0.12521,0.50916,-14.23528
29957.12511,2.0,754.27557,0.51052,0.13141,0.52717,-14.43485
29957.36211,2.0,596.71857,0.53234,0.14251,0.55109,-14.98645
29957.60011,2.0,471.96338,0.55179,0.15126,0.57214,-15.32946
29957.83911,2.0,373.20856,0.5736,0.16026,0.59557,-15.60974
29958.07611,2.0,295.47278,0.59981,0.16882,0.62311,-15.71952
29958.31611,2.0,233.87738,0.62556,0.17953,0.65082,-16.01275
29958.55411,2.0,185.05922,0.6531,0.192,0.68073,-16.3827
29958.79011,2.0,146.35823,0.6753,0.20314,0.70519,-16.74193
29959.02611,2.0,115.77804,0.70768,0.21388,0.73929,-16.81595
29959.26111,2.0,91.6721,0.74349,0.22534,0.77689,-16.86102
29959.50611,2.0,72.51701,0.77031,0.23538,0.80547,-16.9913
29959.73511,2.0,57.36816,0.80714,0.2281,0.83875,-15.78074
29959.97211,2.0,45.3629,0.83658,0.23574,0.86916,-15.73728
29960.20411,2.0,35.93134,0.8792,0.26847,0.91928,-16.98066
29960.45411,2.0,28.40909,0.89254,0.27111,0.9328,-16.89612
29960.66911,2.0,22.48202,0.93192,0.29645,0.97793,-17.64603
29960.93411,2.0,17.79613,0.99518,0.31869,1.04496,-17.75676
29961.18611,2.0,14.06813,1.04173,0.28693,1.08052,-15.39961
29961.40211,2.0,11.1448,1.07766,0.3681,1.13879,-18.85906
29961.66911,2.0,8.81772,1.11613,0.31038,1.15849,-15.54045
29961.84711,2.0,6.97545,1.2473,0.32472,1.28888,-14.59221
29962.06611,2.0,5.5173,1.30422,0.42306,1.37112,-17.97193
29962.33511,2.0,4.36941,1.27895,0.41469,1.3445,-17.96501
29962.67011,2.0,3.45686,1.30241,0.31512,1.33999,-13.60124
29963.08911,2.0,2.73547,1.41944,0.2019,1.43373,-8.09541
29963.61411,2.0,2.16054,1.58793,0.17077,1.59708,-6.13832
29964.27311,2.0,1.70952,1.70646,0.24294,1.72367,-8.10259
29965.10211,2.0,1.35352,1.70586,0.36061,1.74355,-11.93632
29966.14411,2.0,1.07079,1.58193,0.43119,1.63964,-15.24698
29967.45811,2.0,0.84734,1.40104,0.38123,1.45198,-15.22202
29969.11411,2.0,0.67072,1.27269,0.23076,1.29344,-10.27711
29971.20311,2.0,0.53067,1.25958,-0.00858,1.25961,0.39037
29973.83911,2.0,0.41976,1.40403,-0.19585,1.41763,7.94099
29977.17111,2.0,0.33183,1.63969,-0.23477,1.65641,8.14832
29981.37611,2.0,0.26261,1.83895,-0.09738,1.84152,3.03128
29986.68511,2.0,0.20791,1.89571,0.14516,1.90126,-4.37867
29993.38911,2.0,0.16452,1.78131,0.36118,1.81756,-11.46199
30001.86611,2.0,0.13007,1.57746,0.44523,1.63909,-15.76149
30012.55611,2.0,0.10309,1.4105,0.38427,1.46191,-15.23963
30026.07011,2.0,0.08153,1.35491,0.25887,1.37942,-10.81644
30043.16811,2.0,0.06443,1.40235,0.17323,1.41301,-7.04182
30064.75412,2.0,0.05102,1.49364,0.12584,1.49893,-4.81582
30091.99712,2.0,0.04042,1.5995,0.12691,1.60452,-4.53662
30126.49212,2.0,0.03192,1.71813,0.16374,1.72592,-5.44385
30170.04012,2.0,0.02528,1.83701,0.24791,1.85366,-7.68577
30225.10512,2.0,0.01999,1.92201,0.37757,1.95874,-11.11395
45335.04496,3.0,20004.453,0.34157,-0.01312,0.34183,2.19919
45335.18696,3.0,15829.126,0.34509,0.00188,0.3451,-0.3116
45335.32896,3.0,12516.703,0.35275,0.02113,0.35339,-3.42727
45335.47096,3.0,9909.4424,0.3624,0.0342,0.36401,-5.39134
45335.77896,3.0,7835.48,0.37138,0.04536,0.37414,-6.9642
45335.97996,3.0,6217.2461,0.37951,0.05617,0.38365,-8.41954
45336.21796,3.0,4905.291,0.39307,0.06651,0.39866,-9.60407
45336.45696,3.0,3881.2737,0.4026,0.07528,0.40958,-10.5916
45336.69496,3.0,3070.9827,0.4172,0.08509,0.42579,-11.52726
45336.93296,3.0,2430.7778,0.43017,0.09286,0.44008,-12.18107
45337.17096,3.0,1923.1537,0.4466,0.10166,0.45803,-12.82384
45337.40896,3.0,1522.4358,0.46015,0.11056,0.47325,-13.51047
45337.64696,3.0,1203.8446,0.47927,0.11676,0.49329,-13.69155
45337.88596,3.0,952.86591,0.49849,0.12597,0.51416,-14.18206
45338.12396,3.0,754.27557,0.51381,0.1351,0.53128,-14.73199
45338.36196,3.0,596.71857,0.53674,0.14073,0.55488,-14.69158
45338.59896,3.0,471.96338,0.55672,0.15133,0.57692,-15.20675
45338.83796,3.0,373.20856,0.57871,0.16248,0.60109,-15.6829
45339.07596,3.0,295.47278,0.6008,0.16631,0.6234,-15.47274
45339.31497,3.0,233.87738,0.62768,0.17646,0.65201,-15.7023
45339.55297,3.0,185.05922,0.65505,0.18549,0.6808,-15.81054
45339.78897,3.0,146.35823,0.68645,0.20126,0.71534,-16.34046
45340.02597,3.0,115.77804,0.71729,0.20971,0.74732,-16.29671
45340.25997,3.0,91.6721,0.7478,0.21475,0.77802,-16.02277
45340.50497,3.0,72.51701,0.78228,0.23212,0.81599,-16.52656
45340.73497,3.0,57.36816,0.79962,0.23688,0.83397,-16.50151
45340.97097,3.0,45.3629,0.83443,0.25073,0.87128,-16.72448
45341.20297,3.0,35.93134,0.89327,0.25392,0.92866,-15.8681
45341.45397,3.0,28.40909,0.91979,0.28326,0.96242,-17.11651
45341.66797,3.0,22.48202,0.96816,0.29593,1.01237,-16.99625
45341.93297,3.0,17.79613,1.01489,0.28943,1.05535,-15.91731
45342.18497,3.0,14.06813,1.01019,0.30207,1.05438,-16.64782
45342.40097,3.0,11.1448,1.12615,0.33236,1.17417,-16.44299
45342.66897,3.0,8.81772,1.105,0.36395,1.16339,-18.23012
45342.84697,3.0,6.97545,1.18149,0.31267,1.22217,-14.82276
45343.06497,3.0,5.5173,1.33051,0.31758,1.36789,-13.42474
45343.33397,3.0,4.36941,1.39488,0.41043,1.45401,-16.39616
45343.66897,3.0,3.45686,1.3632,0.42429,1.4277,-17.28853
45344.08797,3.0,2.73547,1.3383,0.33255,1.379,-13.95447
45344.61297,3.0,2.16054,1.38815,0.1858,1.40053,-7.62342
45345.27197,3.0,1.70952,1.52469,0.07589,1.52658,-2.84957
45346.10097,3.0,1.35352,1.68648,0.07474,1.68813,-2.5375
45347.14397,3.0,1.07079,1.7827,0.18326,1.79209,-5.8693
45348.45797,3.0,0.84734,1.75201,0.33693,1.78412,-10.88565
45350.11297,3.0,0.67072,1.61448,0.4329,1.67151,-15.01013
45352.20197,3.0,0.53067,1.38536,0.41294,1.44559,-16.59799
45354.83897,3.0,0.41976,1.21173,0.24356,1.23597,-11.36505
45358.16997,3.0,0.33183,1.18764,0.00075,1.18764,-0.03636
45362.37597,3.0,0.26261,1.32413,-0.18378,1.33682,7.90156
45367.68397,3.0,0.20791,1.53773,-0.22115,1.55355,8.18392
45374.38897,3.0,0.16452,1.71774,-0.1043,1.7209,3.47463
45382.86497,3.0,0.13007,1.7768,0.08806,1.77898,-2.83724
45393.55497,3.0,0.10309,1.71508,0.25209,1.7335,-8.36167
45407.06897,3.0,0.08153,1.60294,0.32702,1.63596,-11.53096
45424.16697,3.0,0.06443,1.52854,0.32561,1.56284,-12.02556
45445.75297,3.0,0.05102,1.49148,0.28731,1.5189,-10.90367
45472.99597,3.0,0.04042,1.50322,0.24315,1.52276,-9.18827
45507.49097,3.0,0.03192,1.55706,0.20133,1.57002,-7.36742
45551.03898,3.0,0.02528,1.66428,0.17298,1.67324,-5.93388
45606.10398,3.0,0.01999,1.81996,0.19515,1.83039,-6.12019
60529.05924,4.0,20004.453,0.34271,-0.01371,0.34299,2.29082
60529.20124,4.0,15829.126,0.34575,0.00396,0.34577,-0.65556
60529.34324,4.0,12516.703,0.35585,0.02059,0.35645,-3.3112
60529.48524,4.0,9909.4424,0.36409,0.03376,0.36565,-5.29741
60529.79324,4.0,7835.48,0.37143,0.04551,0.37421,-6.9862
60529.99424,4.0,6217.2461,0.38307,0.05584,0.38712,-8.29364
60530.23224,4.0,4905.291,0.39301,0.06883,0.39899,-9.93316
60530.47124,4.0,3881.2737,0.40653,0.07573,0.41352,-10.55195
60530.70924,4.0,3070.9827,0.41698,0.08456,0.42547,-11.46424
60530.94724,4.0,2430.7778,0.43416,0.09378,0.44417,-12.18887
60531.18524,4.0,1923.1537,0.44629,0.10257,0.45793,-12.94358
60531.42324,4.0,1522.4358,0.46323,0.10766,0.47557,-13.08421
60531.66124,4.0,1203.8446,0.479,0.11883,0.49352,-13.93228
60531.90024,4.0,952.86591,0.49693,0.12634,0.51274,-14.26483
60532.13824,4.0,754.27557,0.51444,0.13294,0.53134,-14.48863
60532.37524,4.0,596.71857,0.53627,0.14353,0.55514,-14.98337
60532.61324,4.0,471.96338,0.55668,0.15294,0.57731,-15.36249
60532.85224,4.0,373.20856,0.57813,0.16204,0.60041,-15.65766
60533.08924,4.0,295.47278,0.6059,0.16924,0.62909,-15.60629
60533.32924,4.0,233.87738,0.62909,0.1813,0.65469,-16.07703
60533.56724,4.0,185.05922,0.65496,0.1889,0.68165,-16.0882
60533.80324,4.0,146.35823,0.68109,0.20258,0.71058,-16.56441
60534.03924,4.0,115.77804,0.71342,0.2138,0.74477,-16.68293
60534.27424,4.0,91.6721,0.75001,0.22433,0.78284,-16.65238
60534.51924,4.0,72.51701,0.7764,0.23597,0.81147,-16.90516
60534.74824,4.0,57.36816,0.8066,0.22849,0.83834,-15.81622
60534.98524,4.0,45.3629,0.83721,0.2389,0.87063,-15.92646
60535.21724,4.0,35.93134,0.88788,0.26734,0.92725,-16.75725
60535.46724,4.0,28.40909,0.90153,0.27636,0.94294,-17.04272
60535.68224,4.0,22.48202,0.94407,0.29919,0.99034,-17.58399
60535.94724,4.0,17.79613,1.00984,0.317,1.05843,-17.42763
60536.19924,4.0,14.06813,1.03995,0.28602,1.07856,-15.37826
60536.41524,4.0,11.1448,1.09837,0.36658,1.15793,-18.45623
60536.68224,4.0,8.81772,1.1174,0.31508,1.16097,-15.74738
60536.86124,4.0,6.97545,1.24249,0.30743,1.27995,-13.8975
60537.07924,4.0,5.5173,1.32482,0.39851,1.38346,-16.74129
60537.34824,4.0,4.36941,1.3029,0.41496,1.36738,-17.66633
60537.68324,4.0,3.45686,1.30284,0.32731,1.34333,-14.10229
60538.10224,4.0,2.73547,1.38784,0.20404,1.40275,-8.36371
60538.62724,4.0,2.16054,1.5414,0.13856,1.54762,-5.13647
60539.28624,4.0,1.70952,1.67903,0.18145,1.68881,-6.16782
60540.11424,4.0,1.35352,1.71578,0.2949,1.74093,-9.75247
60541.15724,4.0,1.07079,1.62481,0.39562,1.67228,-13.68448
60542.47124,4.0,0.84734,1.45206,0.39911,1.50591,-15.36869
60544.12724,4.0,0.67072,1.30019,0.29311,1.33282,-12.70423
60546.21624,4.0,0.53067,1.22982,0.07475,1.23209,-3.47831
60548.85224,4.0,0.41976,1.31698,-0.13374,1.32375,5.79872
60552.18424,4.0,0.33183,1.51796,-0.22517,1.53457,8.43773
60556.39024,4.0,0.26261,1.72202,-0.14898,1.72845,4.94465
60561.69824,4.0,0.20791,1.82128,0.04563,1.82185,-1.43514
60568.40124,4.0,0.16452,1.77313,0.25262,1.79104,-8.10831
60576.87824,4.0,0.13007,1.62241,0.36847,1.66373,-12.79568
60587.56824,4.0,0.10309,1.4713,0.3619,1.51515,-13.81892
60601.08225,4.0,0.08153,1.39594,0.28284,1.4243,-11.45419
60618.17925,4.0,0.06443,1.40756,0.21255,1.42352,-8.58723
60639.76625,4.0,0.05102,1.46497,0.15295,1.47293,-5.96017
60667.00825,4.0,0.04042,1.56039,0.12289,1.56522,-4.50323
60701.50425,4.0,0.03192,1.69285,0.13113,1.69792,-4.4295
60745.05125,4.0,0.02528,1.83927,0.20627,1.8508,-6.3988
60800.11726,4.0,0.01999,1.94913,0.34695,1.97977,-10.09297
75600.723,5.0,20004.453,0.34327,-0.01318,0.34352,2.19871
75600.865,5.0,15829.126,0.34684,0.00283,0.34685,-0.46755
75601.007,5.0,12516.703,0.35523,0.0202,0.3558,-3.25432
75601.149,5.0,9909.4424,0.36607,0.03421,0.36767,-5.33957
75601.457,5.0,7835.48,0.37255,0.0471,0.37552,-7.20584
75601.658,5.0,6217.2461,0.38545,0.05757,0.38973,-8.49496
75601.896,5.0,4905.291,0.39323,0.06477,0.39853,-9.35361
75602.135,5.0,3881.2737,0.40691,0.07765,0.41426,-10.80362
75602.373,5.0,3070.9827,0.4192,0.08415,0.42756,-11.35098
75602.611,5.0,2430.7778,0.43422,0.09381,0.44424,-12.19158
75602.849,5.0,1923.1537,0.44918,0.10099,0.4604,-12.6713
75603.087,5.0,1522.4358,0.46384,0.10958,0.47661,-13.2925
75603.325,5.0,1203.8446,0.48127,0.11535,0.4949,-13.47824
75603.564,5.0,952.86591,0.49709,0.12417,0.51237,-14.02506
75603.802,5.0,754.27557,0.51702,0.13425,0.53416,-14.55567
75604.039,5.0,596.71857,0.53642,0.14173,0.55482,-14.80004
75604.277,5.0,471.96338,0.55774,0.1494,0.5774,-14.99519
75604.516,5.0,373.20856,0.5806,0.15819,0.60177,-15.24119
75604.754,5.0,295.47278,0.60036,0.16991,0.62394,-15.80232
75604.993,5.0,233.87738,0.62449,0.1799,0.64988,-16.07056
75605.231,5.0,185.05922,0.65146,0.19215,0.6792,-16.43387
75605.467,5.0,146.35823,0.68016,0.1961,0.70787,-16.08314
75605.703,5.0,115.77804,0.70981,0.20665,0.73928,-16.23238
75605.938,5.0,91.6721,0.73965,0.22004,0.77169,-16.56719
75606.183,5.0,72.51701,0.77436,0.21986,0.80496,-15.85041
75606.412,5.0,57.36816,0.82143,0.23967,0.85568,-16.26588
75606.649,5.0,45.3629,0.85746,0.24549,0.89191,-15.9762
75606.881,5.0,35.93134,0.86665,0.25337,0.90293,-16.29676
75607.131,5.0,28.40909,0.92075,0.25122,0.9544,-15.26134
75607.346,5.0,22.48202,0.94891,0.26291,0.98466,-15.48606
75607.611,5.0,17.79613,0.97089,0.29326,1.01421,-16.80709
75607.863,5.0,14.06813,1.0596,0.33527,1.11137,-17.55783
75608.079,5.0,11.1448,1.06175,0.31128,1.10644,-16.33975
75608.346,5.0,8.81772,1.19234,0.34042,1.23999,-15.93424
75608.525,5.0,6.97545,1.20986,0.40693,1.27646,-18.5901
75608.743,5.0,5.5173,1.21307,0.35513,1.26399,-16.31768
75609.012,5.0,4.36941,1.30795,0.2692,1.33537,-11.62998
75609.347,5.0,3.45686,1.46677,0.25292,1.48842,-9.78356
75609.766,5.0,2.73547,1.56485,0.32639,1.59853,-11.78155
75610.291,5.0,2.16054,1.54644,0.39839,1.59693,-14.44641
75610.95,5.0,1.70952,1.44635,0.38778,1.49743,-15.00853
75611.779,5.0,1.35352,1.3519,0.26961,1.37853,-11.2786
75612.821,5.0,1.07079,1.34296,0.08572,1.3457,-3.65226
75614.135,5.0,0.84734,1.44717,-0.07455,1.44909,2.94879
75615.791,5.0,0.67072,1.6012,-0.13242,1.60667,4.72752
75617.88,5.0,0.53067,1.78177,-0.05135,1.78251,1.65087
75620.516,5.0,0.41976,1.85188,0.14554,1.85759,-4.4936
75623.848,5.0,0.33183,1.75911,0.35492,1.79456,-11.40688
75628.054,5.0,0.26261,1.54449,0.45741,1.61079,-16.49702
75633.362,5.0,0.20791,1.3271,0.4007,1.38627,-16.80079
75640.06601,5.0,0.16452,1.21634,0.23395,1.23864,-10.8873
75648.54301,5.0,0.13007,1.2483,0.06728,1.25011,-3.08521
75659.23301,5.0,0.10309,1.37195,-0.01679,1.37205,0.70133
75672.74701,5.0,0.08153,1.51274,-0.0052,1.51275,0.19687
75689.84501,5.0,0.06443,1.61288,0.06381,1.61414,-2.26566
75711.43101,5.0,0.05102,1.69813,0.16374,1.706,-5.50762
75738.67402,5.0,0.04042,1.74519,0.28808,1.76881,-9.37334
75773.16902,5.0,0.03192,1.74013,0.40834,1.7874,-13.20626
75816.71702,5.0,0.02528,1.6946,0.48021,1.76132,-15.82137
75871.78203,5.0,0.01999,1.658,0.48088,1.72633,-16.17408
90593.80381,6.0,20004.453,0.3435,-0.01334,0.34375,2.2246
90593.94581,6.0,15829.126,0.34778,0.00206,0.34778,-0.33927
90594.08781,6.0,12516.703,0.35691,0.0196,0.35744,-3.14389
90594.34881,6.0,9909.4424,0.36518,0.03341,0.3667,-5.22798
90594.51281,6.0,7835.48,0.37527,0.04701,0.37821,-7.13981
90594.71381,6.0,6217.2461,0.3834,0.056,0.38747,-8.3094
90594.95181,6.0,4905.291,0.39443,0.06702,0.40008,-9.64334
90595.19081,6.0,3881.2737,0.40826,0.07658,0.41538,-10.62323
90595.42881,6.0,3070.9827,0.41951,0.08377,0.42779,-11.29293
90595.66681,6.0,2430.7778,0.43334,0.09228,0.44306,-12.02213
90595.90481,6.0,1923.1537,0.44842,0.10115,0.45969,-12.71124
90596.14281,6.0,1522.4358,0.46454,0.10822,0.47698,-13.11405
90596.38081,6.0,1203.8446,0.47878,0.117,0.49287,-13.73198
90596.61981,6.0,952.86591,0.49975,0.12735,0.51572,-14.29584
90596.85781,6.0,754.27557,0.51782,0.13084,0.5341,-14.18012
90597.09481,6.0,596.71857,0.53803,0.14372,0.55689,-14.95607
90597.33281,6.0,471.96338,0.55666,0.15066,0.57669,-15.14377
90597.57181,6.0,373.20856,0.57743,0.15994,0.59917,-15.48255
90597.80981,6.0,295.47278,0.60363,0.17105,0.62739,-15.82162
90598.04881,6.0,233.87738,0.62785,0.18223,0.65376,-16.18484
90598.28681,6.0,185.05922,0.65731,0.19216,0.68482,-16.29575
90598.52281,6.0,146.35823,0.68085,0.20076,0.70983,-16.42926
90598.75981,6.0,115.77804,0.7109,0.21194,0.74182,-16.60105
90598.99381,6.0,91.6721,0.74409,0.2241,0.7771,-16.76083
90599.23881,6.0,72.51701,0.76958,0.22892,0.80291,-16.56579
90599.46781,6.0,57.36816,0.81817,0.23046,0.85001,-15.73169
90599.70481,6.0,45.3629,0.85125,0.237,0.88362,-15.55785
90599.93681,6.0,35.93134,0.87372,0.26721,0.91367,-17.00511
90600.18781,6.0,28.40909,0.90255,0.25892,0.93896,-16.00711
90600.40181,6.0,22.48202,0.9328,0.27918,0.97368,-16.66227
90600.66681,6.0,17.79613,0.98335,0.31855,1.03366,-17.9493
90600.91881,6.0,14.06813,1.06794,0.30239,1.10992,-15.80973
90601.13481,6.0,11.1448,1.06212,0.35002,1.11831,-18.23965
90601.40181,6.0,8.81772,1.16009,0.30192,1.19874,-14.58793
90601.58081,6.0,6.97545,1.26659,0.36468,1.31804,-16.06218
90601.79881,6.0,5.5173,1.25195,0.40782,1.3167,-18.04276
90602.06781,6.0,4.36941,1.26042,0.33786,1.30492,-15.00537
90602.40281,6.0,3.45686,1.35619,0.23352,1.37615,-9.76971
90602.82181,6.0,2.73547,1.51389,0.19952,1.52698,-7.50774
90603.34681,6.0,2.16054,1.6284,0.26142,1.64925,-9.12032
90604.00581,6.0,1.70952,1.6274,0.35741,1.66618,-12.38668
90604.83481,6.0,1.35352,1.51974,0.39866,1.57116,-14.69879
90605.87781,6.0,1.07079,1.37448,0.32844,1.41318,-13.43896
90607.19181,6.0,0.84734,1.28821,0.15603,1.29762,-6.90622
90608.84681,6.0,0.67072,1.31032,-0.02491,1.31056,1.08917
